T1EF4 2461:076 SEGGER J-Link V6.20 Log File (0001ms, 8044ms total)
T1EF4 2461:076 DLL Compiled: Sep  8 2017 18:04:35 (0001ms, 8044ms total)
T1EF4 2461:076 Logging started @ 2018-04-13 12:16 (0001ms, 8044ms total)
T1EF4 2461:077 JLINK_SetWarnOutHandler(...) (0000ms, 8044ms total)
T1EF4 2461:077 JLINK_OpenEx(...)
Firmware: J-Link V10 compiled Sep  8 2017 17:24:33
Hardware: V10.10
S/N: 50113061
Feature(s): GDB
TELNET listener socket opened on port 19021Device "CORTEX-M4" selected.WEBSRV 
Webserver running on local port 19080  returns O.K. (0097ms, 8141ms total)
T1EF4 2461:174 JLINK_GetEmuCaps()  returns 0xB9FF7BBF (0000ms, 8141ms total)
T1EF4 2461:174 JLINK_TIF_GetAvailable(...) (0000ms, 8141ms total)
T1EF4 2461:174 JLINK_SetErrorOutHandler(...) (0001ms, 8142ms total)
T1EF4 2461:175 JLINK_ExecCommand("ProjectFile = "D:\TEMPERATURE_SENSOR\0.9.5_branch_temp_sensor\Examples\Reference_Projects\Peripheral_Projects\Keil\bjt_temp_sensor\JLinkSettings.ini"", ...). Device "CORTEX-M4" selected.  returns 0x00 (0002ms, 8144ms total)
T1EF4 2461:177 JLINK_ExecCommand("Device = RS14100_1MB", ...). Device "CORTEX-M4" selected.  returns 0x00 (0001ms, 8145ms total)
T1EF4 2461:178 JLINK_ExecCommand("DisableConnectionTimeout", ...).   returns 0x01 (0000ms, 8145ms total)
T1EF4 2461:178 JLINK_GetHardwareVersion()  returns 0x18A88 (0000ms, 8145ms total)
T1EF4 2461:178 JLINK_GetDLLVersion()  returns 62000 (0000ms, 8145ms total)
T1EF4 2461:178 JLINK_GetFirmwareString(...) (0000ms, 8145ms total)
T1EF4 2461:178 JLINK_GetDLLVersion()  returns 62000 (0000ms, 8145ms total)
T1EF4 2461:178 JLINK_GetCompileDateTime() (0000ms, 8145ms total)
T1EF4 2461:178 JLINK_GetFirmwareString(...) (0000ms, 8145ms total)
T1EF4 2461:178 JLINK_GetHardwareVersion()  returns 0x18A88 (0000ms, 8145ms total)
T1EF4 2461:178 JLINK_TIF_Select(JLINKARM_TIF_JTAG)  returns 0x00 (0002ms, 8147ms total)
T1EF4 2461:180 JLINK_SetSpeed(5000) (0000ms, 8147ms total)
T1EF4 2461:180 JLINK_GetIdData(...) >0x2F8 JTAG>TotalIRLen = 4, IRPrint = 0x01 >0x30 JTAG> >0x30 JTAG>JTAG chain detection found 1 devices: #0 Id: 0x4BA00477, IRLen: 04, CoreSight JTAG-DPScanning AP map to find all available APs >0x78 JTAG> >0x48 JTAG> >0x40 JTAG> >0x40 JTAG> >0x48 JTAG> >0x40 JTAG>AP[1]: Stopped AP scan as end of AP map has been reachedAP[0]: AHB-AP (IDR: 0x24770011)Iterating through AP map to find AHB-AP to use >0x78 JTAG> >0x48 JTAG> >0x48 JTAG> >0x78 JTAG> >0x40 JTAG> >0x30 JTAG>
 >0x40 JTAG> >0x40 JTAG>AP[0]: Core foundAP[0]: AHB-AP ROM base: 0xE00FF000 >0x40 JTAG> >0x40 JTAG> >0x30 JTAG> >0x40 JTAG> >0x40 JTAG>CPUID register: 0x410FC241. Implementer code: 0x41 (ARM)Found Cortex-M4 r0p1, Little endian. -- CPU_ReadMem(4 bytes @ 0xE000EDF0) -- CPU_WriteMem(4 bytes @ 0xE000EDF0) -- CPU_ReadMem(4 bytes @ 0xE0002000)FPUnit: 6 code (BP) slots and 2 literal slots -- CPU_ReadMem(4 bytes @ 0xE000EDFC) -- CPU_WriteMem(4 bytes @ 0xE000EDFC) -- CPU_ReadMem(4 bytes @ 0xE0001000)
 -- CPU_WriteMem(4 bytes @ 0xE0001000) -- CPU_ReadMem(4 bytes @ 0xE000ED88) -- CPU_WriteMem(4 bytes @ 0xE000ED88) -- CPU_ReadMem(4 bytes @ 0xE000ED88) -- CPU_WriteMem(4 bytes @ 0xE000ED88)CoreSight components:ROMTbl[0] @ E00FF000 -- CPU_ReadMem(16 bytes @ 0xE00FF000) -- CPU_ReadMem(16 bytes @ 0xE000EFF0) -- CPU_ReadMem(16 bytes @ 0xE000EFE0)ROMTbl[0][0]: E000E000, CID: B105E00D, PID: 000BB00C SCS -- CPU_ReadMem(16 bytes @ 0xE0001FF0) -- CPU_ReadMem(16 bytes @ 0xE0001FE0)
ROMTbl[0][1]: E0001000, CID: B105E00D, PID: 003BB002 DWT -- CPU_ReadMem(16 bytes @ 0xE0002FF0) -- CPU_ReadMem(16 bytes @ 0xE0002FE0)ROMTbl[0][2]: E0002000, CID: B105E00D, PID: 002BB003 FPB -- CPU_ReadMem(16 bytes @ 0xE0000FF0) -- CPU_ReadMem(16 bytes @ 0xE0000FE0)ROMTbl[0][3]: E0000000, CID: B105E00D, PID: 003BB001 ITM -- CPU_ReadMem(16 bytes @ 0xE00FF010) -- CPU_ReadMem(16 bytes @ 0xE0040FF0) -- CPU_ReadMem(16 bytes @ 0xE0040FE0)ROMTbl[0][4]: E0040000, CID: B105900D, PID: 000BB9A1 TPIU
 -- CPU_ReadMem(16 bytes @ 0xE0041FF0) -- CPU_ReadMem(16 bytes @ 0xE0041FE0)ROMTbl[0][5]: E0041000, CID: B105900D, PID: 000BB925 ETM ScanLen=4 NumDevices=1 aId[0]=0x4BA00477 aIrRead[0]=0 aScanLen[0]=0 aScanRead[0]=0 (0020ms, 8167ms total)
T1EF4 2461:200 JLINK_JTAG_GetDeviceID(DeviceIndex = 0)  returns 0x4BA00477 (0000ms, 8167ms total)
T1EF4 2461:200 JLINK_JTAG_GetDeviceInfo(DeviceIndex = 0)  returns 0x00 (0000ms, 8167ms total)
T1EF4 2461:200 JLINK_GetDLLVersion()  returns 62000 (0000ms, 8167ms total)
T1EF4 2461:200 JLINK_CORE_GetFound()  returns 0xE0000FF (0001ms, 8168ms total)
T1EF4 2461:201 JLINK_GetDebugInfo(0x100 = JLINKARM_ROM_TABLE_ADDR_INDEX) -- Value=0xE00FF000  returns 0x00 (0000ms, 8168ms total)
T1EF4 2461:201 JLINK_GetDebugInfo(0x100 = JLINKARM_ROM_TABLE_ADDR_INDEX) -- Value=0xE00FF000  returns 0x00 (0000ms, 8168ms total)
T1EF4 2461:201 JLINK_GetDebugInfo(0x101 = JLINKARM_DEBUG_INFO_ETM_ADDR_INDEX) -- Value=0xE0041000  returns 0x00 (0000ms, 8168ms total)
T1EF4 2461:201 JLINK_ReadMemEx(0xE0041FD0, 0x0020 Bytes, ..., Flags = 0x02000004) -- CPU_ReadMem(32 bytes @ 0xE0041FD0) - Data: 04 00 00 00 00 00 00 00 00 00 00 00 00 00 00 00 ...  returns 0x20 (0000ms, 8168ms total)
T1EF4 2461:201 JLINK_GetDebugInfo(0x102 = JLINKARM_DEBUG_INFO_MTB_ADDR_INDEX) -- Value=0x00000000  returns 0x00 (0000ms, 8168ms total)
T1EF4 2461:201 JLINK_GetDebugInfo(0x103 = JLINKARM_DEBUG_INFO_TPIU_ADDR_INDEX) -- Value=0xE0040000  returns 0x00 (0001ms, 8169ms total)
T1EF4 2461:202 JLINK_GetDebugInfo(0x104 = JLINKARM_DEBUG_INFO_ITM_ADDR_INDEX) -- Value=0xE0000000  returns 0x00 (0000ms, 8169ms total)
T1EF4 2461:202 JLINK_GetDebugInfo(0x105 = JLINKARM_DEBUG_INFO_DWT_ADDR_INDEX) -- Value=0xE0001000  returns 0x00 (0000ms, 8169ms total)
T1EF4 2461:202 JLINK_GetDebugInfo(0x106 = JLINKARM_DEBUG_INFO_FPB_ADDR_INDEX) -- Value=0xE0002000  returns 0x00 (0000ms, 8169ms total)
T1EF4 2461:202 JLINK_GetDebugInfo(0x107 = JLINKARM_DEBUG_INFO_NVIC_ADDR_INDEX) -- Value=0xE000E000  returns 0x00 (0000ms, 8169ms total)
T1EF4 2461:202 JLINK_GetDebugInfo(0x10C = JLINKARM_DEBUG_INFO_DBG_ADDR_INDEX) -- Value=0xE000EDF0  returns 0x00 (0000ms, 8169ms total)
T1EF4 2461:202 JLINK_ReadMemU32(0xE000EF40, 0x0001 Items, ...) -- CPU_ReadMem(4 bytes @ 0xE000EF40) - Data: 21 00 11 10  returns 0x01 (0000ms, 8169ms total)
T1EF4 2461:202 JLINK_ReadMemU32(0xE000EF44, 0x0001 Items, ...) -- CPU_ReadMem(4 bytes @ 0xE000EF44) - Data: 11 00 00 11  returns 0x01 (0001ms, 8170ms total)
T1EF4 2461:203 JLINK_ReadMemU32(0xE000ED00, 0x0001 Items, ...) -- CPU_ReadMem(4 bytes @ 0xE000ED00) - Data: 41 C2 0F 41  returns 0x01 (0001ms, 8171ms total)
T1EF4 2461:204 JLINK_GetDebugInfo(0x10F = JLINKARM_DEBUG_INFO_HAS_CORTEX_M_SECURITY_EXT_INDEX) -- Value=0x00000000  returns 0x00 (0000ms, 8171ms total)
T1EF4 2461:204 JLINK_SetResetType(JLINKARM_CM3_RESET_TYPE_NORMAL)  returns JLINKARM_CM3_RESET_TYPE_NORMAL (0000ms, 8171ms total)
T1EF4 2461:204 JLINK_Reset() -- CPU is running -- CPU_WriteMem(4 bytes @ 0xE000EDF0) -- CPU is running -- CPU_WriteMem(4 bytes @ 0xE000EDFC)Reset: Halt core after reset via DEMCR.VC_CORERESET.Reset: Reset device via AIRCR.SYSRESETREQ. -- CPU is running -- CPU_WriteMem(4 bytes @ 0xE000ED0C) -- CPU_ReadMem(4 bytes @ 0xE000EDF0) -- CPU_ReadMem(4 bytes @ 0xE000EDF0) -- CPU is running -- CPU_WriteMem(4 bytes @ 0xE000EDF0) -- CPU is running -- CPU_WriteMem(4 bytes @ 0xE000EDFC)
 -- CPU_ReadMem(4 bytes @ 0xE000EDF0) -- CPU_WriteMem(4 bytes @ 0xE000EDFC) -- CPU_WriteMem(4 bytes @ 0xE0001028) -- CPU_WriteMem(4 bytes @ 0xE0001038) -- CPU_WriteMem(4 bytes @ 0xE0001048) -- CPU_WriteMem(4 bytes @ 0xE0001058) -- CPU_WriteMem(4 bytes @ 0xE0002000) -- CPU_ReadMem(4 bytes @ 0xE000EDFC) -- CPU_ReadMem(4 bytes @ 0xE0001000) (0070ms, 8241ms total)
T1EF4 2461:275 JLINK_ReadReg(R15 (PC))  returns 0x00300000 (0000ms, 8242ms total)
T1EF4 2461:275 JLINK_ReadReg(XPSR)  returns 0x01000000 (0000ms, 8242ms total)
T1EF4 2461:275 JLINK_Halt()  returns 0x00 (0000ms, 8242ms total)
T1EF4 2461:275 JLINK_ReadMemU32(0xE000EDF0, 0x0001 Items, ...) -- CPU_ReadMem(4 bytes @ 0xE000EDF0) - Data: 03 00 03 00  returns 0x01 (0001ms, 8243ms total)
T1EF4 2461:276 JLINK_WriteU32(0xE000EDF0, 0xA05F0003) -- CPU_WriteMem(4 bytes @ 0xE000EDF0)  returns 0x00 (0001ms, 8244ms total)
T1EF4 2461:277 JLINK_WriteU32(0xE000EDFC, 0x01000000) -- CPU_WriteMem(4 bytes @ 0xE000EDFC)  returns 0x00 (0001ms, 8245ms total)
T1EF4 2461:278 JLINK_GetHWStatus(...)  returns 0x00 (0000ms, 8245ms total)
T1EF4 2461:279 JLINK_GetNumBPUnits(Type = 0xFFFFFF00)  returns 0x06 (0000ms, 8246ms total)
T1EF4 2461:279 JLINK_GetNumBPUnits(Type = 0xF0)  returns 0x2000 (0000ms, 8246ms total)
T1EF4 2461:279 JLINK_GetNumWPUnits()  returns 0x04 (0000ms, 8246ms total)
T1EF4 2461:279 JLINK_GetSpeed()  returns 0x1388 (0000ms, 8246ms total)
T1EF4 2461:279 JLINK_ReadMemU32(0xE000E004, 0x0001 Items, ...) -- CPU_ReadMem(4 bytes @ 0xE000E004) - Data: 03 00 00 00  returns 0x01 (0001ms, 8247ms total)
T1EF4 2461:280 JLINK_ReadMemU32(0xE000E004, 0x0001 Items, ...) -- CPU_ReadMem(4 bytes @ 0xE000E004) - Data: 03 00 00 00  returns 0x01 (0001ms, 8248ms total)
T1EF4 2461:281 JLINK_WriteMemEx(0xE0001000, 0x001C Bytes, ..., Flags = 0x02000004) - Data: 01 00 00 00 00 00 00 00 00 00 00 00 00 00 00 00 ... -- CPU_WriteMem(28 bytes @ 0xE0001000)  returns 0x1C (0002ms, 8250ms total)
T1EF4 2461:283 JLINK_ReadReg(R15 (PC))  returns 0x00300000 (0000ms, 8250ms total)
T1EF4 2461:283 JLINK_ReadReg(XPSR)  returns 0x01000000 (0000ms, 8250ms total)
T1EF4 2461:417 JLINK_WriteMemEx(0x00000000, 0x1000 Bytes, ..., Flags = 0x02000000) - Data: 00 20 00 00 01 00 30 00 4D 02 00 00 4F 02 00 00 ... -- CPU_WriteMem(4096 bytes @ 0x00000000)  returns 0x1000 (0012ms, 8262ms total)
T1EF4 2461:429 JLINK_WriteMemEx(0x00001000, 0x1000 Bytes, ..., Flags = 0x02000000) - Data: C3 68 61 F3 18 43 C3 60 C1 68 62 F3 09 01 C1 60 ... -- CPU_WriteMem(4096 bytes @ 0x00001000)  returns 0x1000 (0011ms, 8273ms total)
T1EF4 2461:440 JLINK_WriteMemEx(0x00002000, 0x1000 Bytes, ..., Flags = 0x02000000) - Data: 08 01 30 E0 B0 F1 88 4F 01 D0 40 45 0B D1 01 20 ... -- CPU_WriteMem(4096 bytes @ 0x00002000)  returns 0x1000 (0011ms, 8284ms total)
T1EF4 2461:453 JLINK_WriteMemEx(0x00003000, 0x1000 Bytes, ..., Flags = 0x02000000) - Data: 04 F5 80 14 76 1C 76 1C 30 78 66 28 0B D0 13 DC ... -- CPU_WriteMem(4096 bytes @ 0x00003000)  returns 0x1000 (0011ms, 8295ms total)
T1EF4 2461:466 JLINK_WriteMemEx(0x00004000, 0x0A9C Bytes, ..., Flags = 0x02000000) - Data: 02 46 5E 23 CD E9 00 45 00 F0 5A F8 00 20 FD F7 ... -- CPU_WriteMem(2716 bytes @ 0x00004000)  returns 0xA9C (0007ms, 8302ms total)
T1EF4 2461:536 JLINK_SetResetType(JLINKARM_CM3_RESET_TYPE_NORMAL)  returns JLINKARM_CM3_RESET_TYPE_NORMAL (0000ms, 8302ms total)
T1EF4 2461:536 JLINK_Reset() -- CPU_WriteMem(4 bytes @ 0xE000EDF0) -- CPU_WriteMem(4 bytes @ 0xE000EDFC)Reset: Halt core after reset via DEMCR.VC_CORERESET.Reset: Reset device via AIRCR.SYSRESETREQ. -- CPU_WriteMem(4 bytes @ 0xE000ED0C) -- CPU_ReadMem(4 bytes @ 0xE000EDF0) -- CPU_ReadMem(4 bytes @ 0xE000EDF0) -- CPU_WriteMem(4 bytes @ 0xE000EDF0) -- CPU_WriteMem(4 bytes @ 0xE000EDFC) -- CPU_ReadMem(4 bytes @ 0xE000EDF0) -- CPU_WriteMem(4 bytes @ 0xE000EDFC) -- CPU_WriteMem(4 bytes @ 0xE0001028)
 -- CPU_WriteMem(4 bytes @ 0xE0001038) -- CPU_WriteMem(4 bytes @ 0xE0001048) -- CPU_WriteMem(4 bytes @ 0xE0001058) -- CPU_WriteMem(4 bytes @ 0xE0002000) -- CPU_ReadMem(4 bytes @ 0xE000EDFC) -- CPU_ReadMem(4 bytes @ 0xE0001000) (0072ms, 8374ms total)
T1EF4 2461:609 JLINK_ReadReg(R15 (PC))  returns 0x00300000 (0000ms, 8374ms total)
T1EF4 2461:609 JLINK_ReadReg(XPSR)  returns 0x01000000 (0000ms, 8374ms total)
T1EF4 2461:609 JLINK_ReadMemEx(0x00300000, 0x003C Bytes, ..., Flags = 0x02000000) -- CPU_ReadMem(60 bytes @ 0x00300000) - Data: 33 4B 1A 68 D0 07 1B D5 18 68 81 07 18 D5 31 49 ...  returns 0x3C (0001ms, 8375ms total)
T1EF4 2462:459 JLINK_ReadReg(R0)  returns 0x00000000 (0001ms, 8376ms total)
T1EF4 2462:460 JLINK_ReadReg(R1)  returns 0x00000000 (0000ms, 8376ms total)
T1EF4 2462:460 JLINK_ReadReg(R2)  returns 0x00000000 (0000ms, 8376ms total)
T1EF4 2462:460 JLINK_ReadReg(R3)  returns 0x00000000 (0000ms, 8376ms total)
T1EF4 2462:460 JLINK_ReadReg(R4)  returns 0x00000000 (0000ms, 8376ms total)
T1EF4 2462:460 JLINK_ReadReg(R5)  returns 0x00000000 (0000ms, 8376ms total)
T1EF4 2462:460 JLINK_ReadReg(R6)  returns 0x00000000 (0000ms, 8376ms total)
T1EF4 2462:460 JLINK_ReadReg(R7)  returns 0x00000000 (0000ms, 8376ms total)
T1EF4 2462:460 JLINK_ReadReg(R8)  returns 0x00000000 (0000ms, 8376ms total)
T1EF4 2462:460 JLINK_ReadReg(R9)  returns 0x00000000 (0000ms, 8376ms total)
T1EF4 2462:460 JLINK_ReadReg(R10)  returns 0x00000000 (0000ms, 8376ms total)
T1EF4 2462:460 JLINK_ReadReg(R11)  returns 0x00000000 (0000ms, 8376ms total)
T1EF4 2462:460 JLINK_ReadReg(R12)  returns 0x00000000 (0000ms, 8376ms total)
T1EF4 2462:460 JLINK_ReadReg(R13 (SP))  returns 0x00020000 (0000ms, 8376ms total)
T1EF4 2462:460 JLINK_ReadReg(R14)  returns 0xFFFFFFFF (0000ms, 8376ms total)
T1EF4 2462:460 JLINK_ReadReg(R15 (PC))  returns 0x00300000 (0000ms, 8376ms total)
T1EF4 2462:460 JLINK_ReadReg(XPSR)  returns 0x01000000 (0000ms, 8376ms total)
T1EF4 2462:460 JLINK_ReadReg(MSP)  returns 0x00020000 (0000ms, 8376ms total)
T1EF4 2462:460 JLINK_ReadReg(PSP)  returns 0x00000000 (0000ms, 8376ms total)
T1EF4 2462:460 JLINK_ReadReg(CFBP)  returns 0x00000000 (0000ms, 8376ms total)
T1EF4 2462:460 JLINK_ReadReg(FPSCR)  returns 0x00000000 (0003ms, 8379ms total)
T1EF4 2462:463 JLINK_ReadReg(FPS0)  returns 0x00000000 (0000ms, 8379ms total)
T1EF4 2462:463 JLINK_ReadReg(FPS1)  returns 0x00000000 (0000ms, 8379ms total)
T1EF4 2462:463 JLINK_ReadReg(FPS2)  returns 0x00000000 (0000ms, 8379ms total)
T1EF4 2462:463 JLINK_ReadReg(FPS3)  returns 0x00000000 (0000ms, 8379ms total)
T1EF4 2462:463 JLINK_ReadReg(FPS4)  returns 0x00000000 (0000ms, 8379ms total)
T1EF4 2462:463 JLINK_ReadReg(FPS5)  returns 0x00000000 (0000ms, 8379ms total)
T1EF4 2462:463 JLINK_ReadReg(FPS6)  returns 0x00000000 (0000ms, 8379ms total)
T1EF4 2462:463 JLINK_ReadReg(FPS7)  returns 0x00000000 (0000ms, 8379ms total)
T1EF4 2462:463 JLINK_ReadReg(FPS8)  returns 0x00000000 (0000ms, 8379ms total)
T1EF4 2462:463 JLINK_ReadReg(FPS9)  returns 0x00000000 (0000ms, 8379ms total)
T1EF4 2462:463 JLINK_ReadReg(FPS10)  returns 0x00000000 (0000ms, 8379ms total)
T1EF4 2462:463 JLINK_ReadReg(FPS11)  returns 0x00000000 (0000ms, 8379ms total)
T1EF4 2462:463 JLINK_ReadReg(FPS12)  returns 0x00000000 (0000ms, 8379ms total)
T1EF4 2462:463 JLINK_ReadReg(FPS13)  returns 0x00000000 (0000ms, 8379ms total)
T1EF4 2462:463 JLINK_ReadReg(FPS14)  returns 0x00000000 (0000ms, 8379ms total)
T1EF4 2462:463 JLINK_ReadReg(FPS15)  returns 0x00000000 (0000ms, 8379ms total)
T1EF4 2462:463 JLINK_ReadReg(FPS16)  returns 0x00000000 (0000ms, 8379ms total)
T1EF4 2462:463 JLINK_ReadReg(FPS17)  returns 0x00000000 (0000ms, 8379ms total)
T1EF4 2462:463 JLINK_ReadReg(FPS18)  returns 0x00000000 (0000ms, 8379ms total)
T1EF4 2462:463 JLINK_ReadReg(FPS19)  returns 0x00000000 (0000ms, 8379ms total)
T1EF4 2462:463 JLINK_ReadReg(FPS20)  returns 0x00000000 (0001ms, 8380ms total)
T1EF4 2462:464 JLINK_ReadReg(FPS21)  returns 0x00000000 (0000ms, 8380ms total)
T1EF4 2462:464 JLINK_ReadReg(FPS22)  returns 0x00000000 (0000ms, 8380ms total)
T1EF4 2462:464 JLINK_ReadReg(FPS23)  returns 0x00000000 (0000ms, 8380ms total)
T1EF4 2462:464 JLINK_ReadReg(FPS24)  returns 0x00000000 (0000ms, 8380ms total)
T1EF4 2462:464 JLINK_ReadReg(FPS25)  returns 0x00000000 (0000ms, 8380ms total)
T1EF4 2462:464 JLINK_ReadReg(FPS26)  returns 0x00000000 (0000ms, 8380ms total)
T1EF4 2462:464 JLINK_ReadReg(FPS27)  returns 0x00000000 (0000ms, 8380ms total)
T1EF4 2462:464 JLINK_ReadReg(FPS28)  returns 0x00000000 (0000ms, 8380ms total)
T1EF4 2462:464 JLINK_ReadReg(FPS29)  returns 0x00000000 (0000ms, 8380ms total)
T1EF4 2462:464 JLINK_ReadReg(FPS30)  returns 0x00000000 (0000ms, 8380ms total)
T1EF4 2462:464 JLINK_ReadReg(FPS31)  returns 0x00000000 (0000ms, 8380ms total)
T1EF4 2462:556 JLINK_WriteMemEx(0x00000000, 0x1000 Bytes, ..., Flags = 0x02000000) - Data: 00 20 00 00 01 00 30 00 4D 02 00 00 4F 02 00 00 ... -- CPU_WriteMem(4096 bytes @ 0x00000000)  returns 0x1000 (0011ms, 8391ms total)
T1EF4 2462:568 JLINK_WriteMemEx(0x00001000, 0x1000 Bytes, ..., Flags = 0x02000000) - Data: C3 68 61 F3 18 43 C3 60 C1 68 62 F3 09 01 C1 60 ... -- CPU_WriteMem(4096 bytes @ 0x00001000)  returns 0x1000 (0010ms, 8401ms total)
T1EF4 2462:579 JLINK_WriteMemEx(0x00002000, 0x1000 Bytes, ..., Flags = 0x02000000) - Data: 08 01 30 E0 B0 F1 88 4F 01 D0 40 45 0B D1 01 20 ... -- CPU_WriteMem(4096 bytes @ 0x00002000)  returns 0x1000 (0011ms, 8412ms total)
T1EF4 2462:591 JLINK_WriteMemEx(0x00003000, 0x1000 Bytes, ..., Flags = 0x02000000) - Data: 04 F5 80 14 76 1C 76 1C 30 78 66 28 0B D0 13 DC ... -- CPU_WriteMem(4096 bytes @ 0x00003000)  returns 0x1000 (0011ms, 8423ms total)
T1EF4 2462:604 JLINK_WriteMemEx(0x00004000, 0x0A9C Bytes, ..., Flags = 0x02000000) - Data: 02 46 5E 23 CD E9 00 45 00 F0 5A F8 00 20 FD F7 ... -- CPU_WriteMem(2716 bytes @ 0x00004000)  returns 0xA9C (0008ms, 8431ms total)
T1EF4 2462:668 JLINK_WriteReg(R13 (SP), 0x000072D0)  returns 0x00 (0000ms, 8431ms total)
T1EF4 2462:668 JLINK_ReadReg(R0)  returns 0x00000000 (0000ms, 8431ms total)
T1EF4 2462:668 JLINK_ReadReg(R1)  returns 0x00000000 (0000ms, 8431ms total)
T1EF4 2462:668 JLINK_ReadReg(R2)  returns 0x00000000 (0000ms, 8431ms total)
T1EF4 2462:668 JLINK_ReadReg(R3)  returns 0x00000000 (0000ms, 8431ms total)
T1EF4 2462:668 JLINK_ReadReg(R4)  returns 0x00000000 (0000ms, 8431ms total)
T1EF4 2462:668 JLINK_ReadReg(R5)  returns 0x00000000 (0000ms, 8431ms total)
T1EF4 2462:668 JLINK_ReadReg(R6)  returns 0x00000000 (0000ms, 8431ms total)
T1EF4 2462:668 JLINK_ReadReg(R7)  returns 0x00000000 (0001ms, 8432ms total)
T1EF4 2462:669 JLINK_ReadReg(R8)  returns 0x00000000 (0000ms, 8432ms total)
T1EF4 2462:669 JLINK_ReadReg(R9)  returns 0x00000000 (0000ms, 8432ms total)
T1EF4 2462:669 JLINK_ReadReg(R10)  returns 0x00000000 (0000ms, 8432ms total)
T1EF4 2462:669 JLINK_ReadReg(R11)  returns 0x00000000 (0000ms, 8432ms total)
T1EF4 2462:669 JLINK_ReadReg(R12)  returns 0x00000000 (0000ms, 8432ms total)
T1EF4 2462:669 JLINK_ReadReg(R13 (SP))  returns 0x000072D0 (0000ms, 8432ms total)
T1EF4 2462:669 JLINK_ReadReg(R14)  returns 0xFFFFFFFF (0000ms, 8432ms total)
T1EF4 2462:669 JLINK_ReadReg(R15 (PC))  returns 0x00300000 (0000ms, 8432ms total)
T1EF4 2462:669 JLINK_ReadReg(XPSR)  returns 0x01000000 (0000ms, 8432ms total)
T1EF4 2462:669 JLINK_ReadReg(MSP)  returns 0x000072D0 (0000ms, 8432ms total)
T1EF4 2462:669 JLINK_ReadReg(PSP)  returns 0x00000000 (0000ms, 8432ms total)
T1EF4 2462:669 JLINK_ReadReg(CFBP)  returns 0x00000000 (0000ms, 8432ms total)
T1EF4 2462:669 JLINK_ReadReg(FPSCR)  returns 0x00000000 (0001ms, 8433ms total)
T1EF4 2462:670 JLINK_ReadReg(FPS0)  returns 0x00000000 (0000ms, 8433ms total)
T1EF4 2462:670 JLINK_ReadReg(FPS1)  returns 0x00000000 (0000ms, 8433ms total)
T1EF4 2462:670 JLINK_ReadReg(FPS2)  returns 0x00000000 (0000ms, 8433ms total)
T1EF4 2462:670 JLINK_ReadReg(FPS3)  returns 0x00000000 (0000ms, 8433ms total)
T1EF4 2462:670 JLINK_ReadReg(FPS4)  returns 0x00000000 (0000ms, 8433ms total)
T1EF4 2462:670 JLINK_ReadReg(FPS5)  returns 0x00000000 (0000ms, 8433ms total)
T1EF4 2462:670 JLINK_ReadReg(FPS6)  returns 0x00000000 (0000ms, 8433ms total)
T1EF4 2462:670 JLINK_ReadReg(FPS7)  returns 0x00000000 (0000ms, 8433ms total)
T1EF4 2462:670 JLINK_ReadReg(FPS8)  returns 0x00000000 (0000ms, 8433ms total)
T1EF4 2462:670 JLINK_ReadReg(FPS9)  returns 0x00000000 (0000ms, 8433ms total)
T1EF4 2462:670 JLINK_ReadReg(FPS10)  returns 0x00000000 (0000ms, 8433ms total)
T1EF4 2462:670 JLINK_ReadReg(FPS11)  returns 0x00000000 (0001ms, 8434ms total)
T1EF4 2462:671 JLINK_ReadReg(FPS12)  returns 0x00000000 (0000ms, 8434ms total)
T1EF4 2462:671 JLINK_ReadReg(FPS13)  returns 0x00000000 (0000ms, 8434ms total)
T1EF4 2462:671 JLINK_ReadReg(FPS14)  returns 0x00000000 (0000ms, 8434ms total)
T1EF4 2462:671 JLINK_ReadReg(FPS15)  returns 0x00000000 (0000ms, 8434ms total)
T1EF4 2462:671 JLINK_ReadReg(FPS16)  returns 0x00000000 (0000ms, 8434ms total)
T1EF4 2462:671 JLINK_ReadReg(FPS17)  returns 0x00000000 (0000ms, 8434ms total)
T1EF4 2462:671 JLINK_ReadReg(FPS18)  returns 0x00000000 (0000ms, 8434ms total)
T1EF4 2462:671 JLINK_ReadReg(FPS19)  returns 0x00000000 (0000ms, 8434ms total)
T1EF4 2462:671 JLINK_ReadReg(FPS20)  returns 0x00000000 (0000ms, 8434ms total)
T1EF4 2462:671 JLINK_ReadReg(FPS21)  returns 0x00000000 (0000ms, 8434ms total)
T1EF4 2462:671 JLINK_ReadReg(FPS22)  returns 0x00000000 (0000ms, 8434ms total)
T1EF4 2462:671 JLINK_ReadReg(FPS23)  returns 0x00000000 (0001ms, 8435ms total)
T1EF4 2462:672 JLINK_ReadReg(FPS24)  returns 0x00000000 (0000ms, 8435ms total)
T1EF4 2462:672 JLINK_ReadReg(FPS25)  returns 0x00000000 (0000ms, 8435ms total)
T1EF4 2462:672 JLINK_ReadReg(FPS26)  returns 0x00000000 (0000ms, 8435ms total)
T1EF4 2462:672 JLINK_ReadReg(FPS27)  returns 0x00000000 (0000ms, 8435ms total)
T1EF4 2462:672 JLINK_ReadReg(FPS28)  returns 0x00000000 (0000ms, 8435ms total)
T1EF4 2462:672 JLINK_ReadReg(FPS29)  returns 0x00000000 (0000ms, 8435ms total)
T1EF4 2462:672 JLINK_ReadReg(FPS30)  returns 0x00000000 (0000ms, 8435ms total)
T1EF4 2462:672 JLINK_ReadReg(FPS31)  returns 0x00000000 (0000ms, 8435ms total)
T1EF4 2462:672 JLINK_WriteReg(R15 (PC), 0x00000244)  returns 0x00 (0000ms, 8435ms total)
T1EF4 2462:672 JLINK_ReadReg(R0)  returns 0x00000000 (0000ms, 8435ms total)
T1EF4 2462:672 JLINK_ReadReg(R1)  returns 0x00000000 (0000ms, 8435ms total)
T1EF4 2462:672 JLINK_ReadReg(R2)  returns 0x00000000 (0000ms, 8435ms total)
T1EF4 2462:673 JLINK_ReadReg(R3)  returns 0x00000000 (0000ms, 8436ms total)
T1EF4 2462:673 JLINK_ReadReg(R4)  returns 0x00000000 (0000ms, 8436ms total)
T1EF4 2462:673 JLINK_ReadReg(R5)  returns 0x00000000 (0000ms, 8436ms total)
T1EF4 2462:673 JLINK_ReadReg(R6)  returns 0x00000000 (0000ms, 8436ms total)
T1EF4 2462:673 JLINK_ReadReg(R7)  returns 0x00000000 (0000ms, 8436ms total)
T1EF4 2462:673 JLINK_ReadReg(R8)  returns 0x00000000 (0000ms, 8436ms total)
T1EF4 2462:673 JLINK_ReadReg(R9)  returns 0x00000000 (0000ms, 8436ms total)
T1EF4 2462:673 JLINK_ReadReg(R10)  returns 0x00000000 (0000ms, 8436ms total)
T1EF4 2462:673 JLINK_ReadReg(R11)  returns 0x00000000 (0000ms, 8436ms total)
T1EF4 2462:673 JLINK_ReadReg(R12)  returns 0x00000000 (0000ms, 8436ms total)
T1EF4 2462:673 JLINK_ReadReg(R13 (SP))  returns 0x000072D0 (0000ms, 8436ms total)
T1EF4 2462:673 JLINK_ReadReg(R14)  returns 0xFFFFFFFF (0000ms, 8436ms total)
T1EF4 2462:673 JLINK_ReadReg(R15 (PC))  returns 0x00000244 (0001ms, 8437ms total)
T1EF4 2462:674 JLINK_ReadReg(XPSR)  returns 0x01000000 (0000ms, 8437ms total)
T1EF4 2462:674 JLINK_ReadReg(MSP)  returns 0x000072D0 (0000ms, 8437ms total)
T1EF4 2462:674 JLINK_ReadReg(PSP)  returns 0x00000000 (0000ms, 8437ms total)
T1EF4 2462:674 JLINK_ReadReg(CFBP)  returns 0x00000000 (0000ms, 8437ms total)
T1EF4 2462:674 JLINK_ReadReg(FPSCR)  returns 0x00000000 (0000ms, 8437ms total)
T1EF4 2462:674 JLINK_ReadReg(FPS0)  returns 0x00000000 (0000ms, 8437ms total)
T1EF4 2462:674 JLINK_ReadReg(FPS1)  returns 0x00000000 (0000ms, 8437ms total)
T1EF4 2462:674 JLINK_ReadReg(FPS2)  returns 0x00000000 (0000ms, 8437ms total)
T1EF4 2462:674 JLINK_ReadReg(FPS3)  returns 0x00000000 (0000ms, 8437ms total)
T1EF4 2462:674 JLINK_ReadReg(FPS4)  returns 0x00000000 (0000ms, 8437ms total)
T1EF4 2462:674 JLINK_ReadReg(FPS5)  returns 0x00000000 (0000ms, 8437ms total)
T1EF4 2462:674 JLINK_ReadReg(FPS6)  returns 0x00000000 (0000ms, 8437ms total)
T1EF4 2462:674 JLINK_ReadReg(FPS7)  returns 0x00000000 (0001ms, 8438ms total)
T1EF4 2462:675 JLINK_ReadReg(FPS8)  returns 0x00000000 (0000ms, 8438ms total)
T1EF4 2462:675 JLINK_ReadReg(FPS9)  returns 0x00000000 (0000ms, 8438ms total)
T1EF4 2462:675 JLINK_ReadReg(FPS10)  returns 0x00000000 (0000ms, 8438ms total)
T1EF4 2462:675 JLINK_ReadReg(FPS11)  returns 0x00000000 (0000ms, 8438ms total)
T1EF4 2462:675 JLINK_ReadReg(FPS12)  returns 0x00000000 (0000ms, 8438ms total)
T1EF4 2462:675 JLINK_ReadReg(FPS13)  returns 0x00000000 (0000ms, 8438ms total)
T1EF4 2462:675 JLINK_ReadReg(FPS14)  returns 0x00000000 (0000ms, 8438ms total)
T1EF4 2462:675 JLINK_ReadReg(FPS15)  returns 0x00000000 (0000ms, 8438ms total)
T1EF4 2462:675 JLINK_ReadReg(FPS16)  returns 0x00000000 (0000ms, 8438ms total)
T1EF4 2462:675 JLINK_ReadReg(FPS17)  returns 0x00000000 (0000ms, 8438ms total)
T1EF4 2462:675 JLINK_ReadReg(FPS18)  returns 0x00000000 (0000ms, 8438ms total)
T1EF4 2462:675 JLINK_ReadReg(FPS19)  returns 0x00000000 (0000ms, 8438ms total)
T1EF4 2462:675 JLINK_ReadReg(FPS20)  returns 0x00000000 (0001ms, 8439ms total)
T1EF4 2462:676 JLINK_ReadReg(FPS21)  returns 0x00000000 (0000ms, 8439ms total)
T1EF4 2462:676 JLINK_ReadReg(FPS22)  returns 0x00000000 (0000ms, 8439ms total)
T1EF4 2462:676 JLINK_ReadReg(FPS23)  returns 0x00000000 (0000ms, 8439ms total)
T1EF4 2462:676 JLINK_ReadReg(FPS24)  returns 0x00000000 (0000ms, 8439ms total)
T1EF4 2462:676 JLINK_ReadReg(FPS25)  returns 0x00000000 (0000ms, 8439ms total)
T1EF4 2462:676 JLINK_ReadReg(FPS26)  returns 0x00000000 (0000ms, 8439ms total)
T1EF4 2462:676 JLINK_ReadReg(FPS27)  returns 0x00000000 (0000ms, 8439ms total)
T1EF4 2462:676 JLINK_ReadReg(FPS28)  returns 0x00000000 (0000ms, 8439ms total)
T1EF4 2462:676 JLINK_ReadReg(FPS29)  returns 0x00000000 (0000ms, 8439ms total)
T1EF4 2462:676 JLINK_ReadReg(FPS30)  returns 0x00000000 (0000ms, 8439ms total)
T1EF4 2462:676 JLINK_ReadReg(FPS31)  returns 0x00000000 (0000ms, 8439ms total)
T1EF4 2462:676 JLINK_WriteMemEx(0xE000ED08, 0x0004 Bytes, ..., Flags = 0x02000000) - Data: 00 00 00 00 -- CPU_WriteMem(4 bytes @ 0xE000ED08)  returns 0x04 (0001ms, 8440ms total)
T0EC8 2462:694 JLINK_ReadMemEx(0x00000244, 0x0002 Bytes, ..., Flags = 0x02000000) -- CPU_ReadMem(2 bytes @ 0x00000244) - Data: 08 48  returns 0x02 (0001ms, 8441ms total)
T0EC8 2462:695 JLINK_SetBPEx(Addr = 0x00003FDC, Type = 0xFFFFFFF2)  returns 0x00000001 (0000ms, 8441ms total)
T0EC8 2462:695 JLINK_Go() -- CPU_ReadMem(4 bytes @ 0xE0001000) -- CPU_WriteMem(4 bytes @ 0xE0002008) -- CPU_WriteMem(4 bytes @ 0xE000200C) -- CPU_WriteMem(4 bytes @ 0xE0002010) -- CPU_WriteMem(4 bytes @ 0xE0002014) -- CPU_WriteMem(4 bytes @ 0xE0002018) -- CPU_WriteMem(4 bytes @ 0xE000201C) -- CPU_WriteMem(4 bytes @ 0xE0001004) (0003ms, 8444ms total)
T0EC8 2462:798 JLINK_IsHalted()  returns TRUE (0001ms, 8445ms total)
T0EC8 2462:800 JLINK_Halt()  returns 0x00 (0000ms, 8444ms total)
T0EC8 2462:800 JLINK_IsHalted()  returns TRUE (0000ms, 8444ms total)
T0EC8 2462:800 JLINK_IsHalted()  returns TRUE (0000ms, 8444ms total)
T0EC8 2462:800 JLINK_IsHalted()  returns TRUE (0000ms, 8444ms total)
T0EC8 2462:800 JLINK_ReadReg(R15 (PC))  returns 0x00003FDC (0000ms, 8444ms total)
T0EC8 2462:800 JLINK_ReadReg(XPSR)  returns 0x61000000 (0000ms, 8444ms total)
T0EC8 2462:800 JLINK_ClrBPEx(BPHandle = 0x00000001)  returns 0x00 (0000ms, 8444ms total)
T0EC8 2462:800 JLINK_ReadMemU32(0xE000ED30, 0x0001 Items, ...) -- CPU_ReadMem(4 bytes @ 0xE000ED30) - Data: 02 00 00 00  returns 0x01 (0000ms, 8444ms total)
T0EC8 2462:800 JLINK_ReadMemU32(0xE0001028, 0x0001 Items, ...) -- CPU_ReadMem(4 bytes @ 0xE0001028) - Data: 00 00 00 00  returns 0x01 (0001ms, 8445ms total)
T0EC8 2462:801 JLINK_ReadMemU32(0xE0001038, 0x0001 Items, ...) -- CPU_ReadMem(4 bytes @ 0xE0001038) - Data: 00 02 00 00  returns 0x01 (0000ms, 8445ms total)
T0EC8 2462:801 JLINK_ReadMemU32(0xE0001048, 0x0001 Items, ...) -- CPU_ReadMem(4 bytes @ 0xE0001048) - Data: 00 00 00 00  returns 0x01 (0000ms, 8445ms total)
T0EC8 2462:801 JLINK_ReadMemU32(0xE0001058, 0x0001 Items, ...) -- CPU_ReadMem(4 bytes @ 0xE0001058) - Data: 00 00 00 00  returns 0x01 (0001ms, 8446ms total)
T0EC8 2462:802 JLINK_ReadReg(R0)  returns 0x00003FDD (0000ms, 8446ms total)
T0EC8 2462:802 JLINK_ReadReg(R1)  returns 0x000072D0 (0000ms, 8446ms total)
T0EC8 2462:802 JLINK_ReadReg(R2)  returns 0x00000000 (0000ms, 8446ms total)
T0EC8 2462:802 JLINK_ReadReg(R3)  returns 0x00002D91 (0000ms, 8446ms total)
T0EC8 2462:802 JLINK_ReadReg(R4)  returns 0x00004A30 (0000ms, 8446ms total)
T0EC8 2462:802 JLINK_ReadReg(R5)  returns 0x00004A30 (0000ms, 8446ms total)
T0EC8 2462:802 JLINK_ReadReg(R6)  returns 0x00000000 (0000ms, 8446ms total)
T0EC8 2462:802 JLINK_ReadReg(R7)  returns 0x00000000 (0000ms, 8446ms total)
T0EC8 2462:802 JLINK_ReadReg(R8)  returns 0x00000000 (0000ms, 8446ms total)
T0EC8 2462:802 JLINK_ReadReg(R9)  returns 0x00000000 (0000ms, 8446ms total)
T0EC8 2462:802 JLINK_ReadReg(R10)  returns 0x00000000 (0000ms, 8446ms total)
T0EC8 2462:802 JLINK_ReadReg(R11)  returns 0x00000000 (0000ms, 8446ms total)
T0EC8 2462:802 JLINK_ReadReg(R12)  returns 0x00000000 (0000ms, 8446ms total)
T0EC8 2462:802 JLINK_ReadReg(R13 (SP))  returns 0x000072D0 (0000ms, 8446ms total)
T0EC8 2462:802 JLINK_ReadReg(R14)  returns 0x00000815 (0000ms, 8446ms total)
T0EC8 2462:802 JLINK_ReadReg(R15 (PC))  returns 0x00003FDC (0000ms, 8446ms total)
T0EC8 2462:802 JLINK_ReadReg(XPSR)  returns 0x61000000 (0000ms, 8446ms total)
T0EC8 2462:802 JLINK_ReadReg(MSP)  returns 0x000072D0 (0000ms, 8446ms total)
T0EC8 2462:802 JLINK_ReadReg(PSP)  returns 0x00000000 (0000ms, 8446ms total)
T0EC8 2462:802 JLINK_ReadReg(CFBP)  returns 0x00000000 (0000ms, 8446ms total)
T0EC8 2462:802 JLINK_ReadReg(FPSCR)  returns 0x00000000 (0003ms, 8449ms total)
T0EC8 2462:805 JLINK_ReadReg(FPS0)  returns 0x00000000 (0000ms, 8449ms total)
T0EC8 2462:805 JLINK_ReadReg(FPS1)  returns 0x00000000 (0000ms, 8449ms total)
T0EC8 2462:805 JLINK_ReadReg(FPS2)  returns 0x00000000 (0000ms, 8449ms total)
T0EC8 2462:805 JLINK_ReadReg(FPS3)  returns 0x00000000 (0000ms, 8449ms total)
T0EC8 2462:805 JLINK_ReadReg(FPS4)  returns 0x00000000 (0000ms, 8449ms total)
T0EC8 2462:805 JLINK_ReadReg(FPS5)  returns 0x00000000 (0000ms, 8449ms total)
T0EC8 2462:805 JLINK_ReadReg(FPS6)  returns 0x00000000 (0000ms, 8449ms total)
T0EC8 2462:805 JLINK_ReadReg(FPS7)  returns 0x00000000 (0000ms, 8449ms total)
T0EC8 2462:805 JLINK_ReadReg(FPS8)  returns 0x00000000 (0000ms, 8449ms total)
T0EC8 2462:805 JLINK_ReadReg(FPS9)  returns 0x00000000 (0000ms, 8449ms total)
T0EC8 2462:805 JLINK_ReadReg(FPS10)  returns 0x00000000 (0000ms, 8449ms total)
T0EC8 2462:805 JLINK_ReadReg(FPS11)  returns 0x00000000 (0000ms, 8449ms total)
T0EC8 2462:805 JLINK_ReadReg(FPS12)  returns 0x00000000 (0000ms, 8449ms total)
T0EC8 2462:805 JLINK_ReadReg(FPS13)  returns 0x00000000 (0000ms, 8449ms total)
T0EC8 2462:805 JLINK_ReadReg(FPS14)  returns 0x00000000 (0000ms, 8449ms total)
T0EC8 2462:805 JLINK_ReadReg(FPS15)  returns 0x00000000 (0000ms, 8449ms total)
T0EC8 2462:805 JLINK_ReadReg(FPS16)  returns 0x00000000 (0000ms, 8449ms total)
T0EC8 2462:805 JLINK_ReadReg(FPS17)  returns 0x00000000 (0000ms, 8449ms total)
T0EC8 2462:805 JLINK_ReadReg(FPS18)  returns 0x00000000 (0000ms, 8449ms total)
T0EC8 2462:805 JLINK_ReadReg(FPS19)  returns 0x00000000 (0000ms, 8449ms total)
T0EC8 2462:805 JLINK_ReadReg(FPS20)  returns 0x00000000 (0000ms, 8449ms total)
T0EC8 2462:806 JLINK_ReadReg(FPS21)  returns 0x00000000 (0000ms, 8450ms total)
T0EC8 2462:806 JLINK_ReadReg(FPS22)  returns 0x00000000 (0000ms, 8450ms total)
T0EC8 2462:806 JLINK_ReadReg(FPS23)  returns 0x00000000 (0000ms, 8450ms total)
T0EC8 2462:806 JLINK_ReadReg(FPS24)  returns 0x00000000 (0000ms, 8450ms total)
T0EC8 2462:806 JLINK_ReadReg(FPS25)  returns 0x00000000 (0000ms, 8450ms total)
T0EC8 2462:806 JLINK_ReadReg(FPS26)  returns 0x00000000 (0000ms, 8450ms total)
T0EC8 2462:806 JLINK_ReadReg(FPS27)  returns 0x00000000 (0000ms, 8450ms total)
T0EC8 2462:806 JLINK_ReadReg(FPS28)  returns 0x00000000 (0000ms, 8450ms total)
T0EC8 2462:806 JLINK_ReadReg(FPS29)  returns 0x00000000 (0000ms, 8450ms total)
T0EC8 2462:806 JLINK_ReadReg(FPS30)  returns 0x00000000 (0000ms, 8450ms total)
T0EC8 2462:806 JLINK_ReadReg(FPS31)  returns 0x00000000 (0000ms, 8450ms total)
T1EF4 2462:806 JLINK_ReadMemEx(0x00006070, 0x0004 Bytes, ..., Flags = 0x02000000) -- CPU_ReadMem(64 bytes @ 0x00006040) -- Updating DA cache (64 bytes @ 0x00006040) -- Read from DA cache (4 bytes @ 0x00006070) - Data: 00 00 00 00  returns 0x04 (0001ms, 8451ms total)
T1EF4 2462:810 JLINK_ReadMemEx(0x0000605C, 0x0004 Bytes, ..., Flags = 0x02000000) -- Read from DA cache (4 bytes @ 0x0000605C) - Data: 00 00 00 00  returns 0x04 (0000ms, 8451ms total)
T1EF4 2462:811 JLINK_ReadMemEx(0x00006060, 0x0004 Bytes, ..., Flags = 0x02000000) -- Read from DA cache (4 bytes @ 0x00006060) - Data: 00 00 00 00  returns 0x04 (0000ms, 8451ms total)
T1EF4 2462:812 JLINK_ReadMemEx(0x00006064, 0x0004 Bytes, ..., Flags = 0x02000000) -- Read from DA cache (4 bytes @ 0x00006064) - Data: 00 00 00 00  returns 0x04 (0000ms, 8451ms total)
T0EC8 2462:830 JLINK_ReadMemEx(0x00003FDC, 0x0002 Bytes, ..., Flags = 0x02000000) -- CPU_ReadMem(64 bytes @ 0x00003FC0) -- Updating DA cache (64 bytes @ 0x00003FC0) -- Read from DA cache (2 bytes @ 0x00003FDC) - Data: 1C B5  returns 0x02 (0001ms, 8452ms total)
T0EC8 2462:831 JLINK_Step() -- Read from DA cache (2 bytes @ 0x00003FDC) -- CPU_ReadMem(4 bytes @ 0xE000ED18) -- CPU_WriteMem(4 bytes @ 0xE000ED18) -- CPU_ReadMem(4 bytes @ 0xE000ED18) -- CPU_WriteMem(4 bytes @ 0xE000ED18) -- CPU_ReadMem(4 bytes @ 0xE0001004) -- Not simulated -- CPU_WriteMem(4 bytes @ 0xE0002008)  returns 0x00 (0005ms, 8457ms total)
T0EC8 2462:836 JLINK_ReadReg(R15 (PC))  returns 0x00003FDE (0000ms, 8457ms total)
T0EC8 2462:836 JLINK_ReadReg(XPSR)  returns 0x61000000 (0000ms, 8457ms total)
T0EC8 2462:836 JLINK_SetBPEx(Addr = 0x00003FDC, Type = 0xFFFFFFF2)  returns 0x00000002 (0000ms, 8457ms total)
T0EC8 2462:836 JLINK_Go() -- CPU_ReadMem(4 bytes @ 0xE0001000) -- CPU_WriteMem(4 bytes @ 0xE0002008) (0002ms, 8459ms total)
T0EC8 2462:938 JLINK_IsHalted()  returns FALSE (0000ms, 8459ms total)
T0EC8 2463:038 JLINK_IsHalted()  returns FALSE (0000ms, 8459ms total)
T0EC8 2463:139 JLINK_IsHalted()  returns FALSE (0001ms, 8460ms total)
T0EC8 2463:240 JLINK_IsHalted()  returns FALSE (0000ms, 8459ms total)
T0EC8 2463:340 JLINK_IsHalted()  returns FALSE (0001ms, 8460ms total)
T0EC8 2463:441 JLINK_IsHalted()  returns FALSE (0000ms, 8459ms total)
T0EC8 2463:541 JLINK_IsHalted()  returns FALSE (0000ms, 8459ms total)
T0EC8 2463:641 JLINK_IsHalted()  returns FALSE (0000ms, 8459ms total)
T0EC8 2463:741 JLINK_IsHalted()  returns FALSE (0000ms, 8459ms total)
T0EC8 2463:841 JLINK_IsHalted()  returns FALSE (0000ms, 8459ms total)
T0EC8 2463:941 JLINK_IsHalted()  returns FALSE (0001ms, 8460ms total)
T0EC8 2464:042 JLINK_IsHalted()  returns FALSE (0000ms, 8459ms total)
T0EC8 2464:142 JLINK_IsHalted()  returns FALSE (0000ms, 8459ms total)
T0EC8 2464:242 JLINK_IsHalted()  returns FALSE (0000ms, 8459ms total)
T0EC8 2464:342 JLINK_IsHalted()  returns FALSE (0000ms, 8459ms total)
T0EC8 2464:442 JLINK_IsHalted()  returns FALSE (0000ms, 8459ms total)
T0EC8 2464:542 JLINK_IsHalted()  returns FALSE (0000ms, 8459ms total)
T0EC8 2464:642 JLINK_IsHalted()  returns FALSE (0000ms, 8459ms total)
T0EC8 2464:742 JLINK_IsHalted()  returns FALSE (0000ms, 8459ms total)
T0EC8 2464:842 JLINK_IsHalted()  returns FALSE (0000ms, 8459ms total)
T0EC8 2464:942 JLINK_IsHalted()  returns FALSE (0000ms, 8459ms total)
T0EC8 2465:042 JLINK_IsHalted()  returns FALSE (0000ms, 8459ms total)
T0EC8 2465:142 JLINK_IsHalted()  returns FALSE (0000ms, 8459ms total)
T0EC8 2465:242 JLINK_IsHalted()  returns FALSE (0000ms, 8459ms total)
T0EC8 2465:342 JLINK_IsHalted()  returns FALSE (0000ms, 8459ms total)
T0EC8 2465:442 JLINK_IsHalted()  returns FALSE (0000ms, 8459ms total)
T0EC8 2465:542 JLINK_IsHalted()  returns FALSE (0000ms, 8459ms total)
T0EC8 2465:642 JLINK_IsHalted()  returns FALSE (0000ms, 8459ms total)
T0EC8 2465:742 JLINK_IsHalted()  returns FALSE (0000ms, 8459ms total)
T0EC8 2465:842 JLINK_IsHalted()  returns FALSE (0000ms, 8459ms total)
T0EC8 2465:942 JLINK_IsHalted()  returns FALSE (0000ms, 8459ms total)
T0EC8 2466:042 JLINK_IsHalted()  returns FALSE (0000ms, 8459ms total)
T0EC8 2466:142 JLINK_IsHalted()  returns FALSE (0000ms, 8459ms total)
T0EC8 2466:242 JLINK_IsHalted()  returns FALSE (0000ms, 8459ms total)
T0EC8 2466:342 JLINK_IsHalted()  returns FALSE (0000ms, 8459ms total)
T0EC8 2466:442 JLINK_IsHalted()  returns FALSE (0001ms, 8460ms total)
T0EC8 2466:543 JLINK_IsHalted()  returns FALSE (0000ms, 8459ms total)
T0EC8 2466:643 JLINK_IsHalted()  returns FALSE (0000ms, 8459ms total)
T0EC8 2466:743 JLINK_IsHalted()  returns FALSE (0000ms, 8459ms total)
T0EC8 2466:843 JLINK_Halt()  returns 0x00 (0003ms, 8462ms total)
T0EC8 2466:846 JLINK_IsHalted()  returns TRUE (0000ms, 8462ms total)
T0EC8 2466:846 JLINK_IsHalted()  returns TRUE (0000ms, 8462ms total)
T0EC8 2466:846 JLINK_IsHalted()  returns TRUE (0000ms, 8462ms total)
T0EC8 2466:846 JLINK_ReadReg(R15 (PC))  returns 0x0000058C (0000ms, 8462ms total)
T0EC8 2466:846 JLINK_ReadReg(XPSR)  returns 0x21000000 (0000ms, 8462ms total)
T0EC8 2466:846 JLINK_ClrBPEx(BPHandle = 0x00000002)  returns 0x00 (0000ms, 8462ms total)
T0EC8 2466:846 JLINK_ReadMemU32(0xE000ED30, 0x0001 Items, ...) -- CPU_ReadMem(4 bytes @ 0xE000ED30) - Data: 01 00 00 00  returns 0x01 (0001ms, 8463ms total)
T0EC8 2466:847 JLINK_ReadMemU32(0xE0001028, 0x0001 Items, ...) -- CPU_ReadMem(4 bytes @ 0xE0001028) - Data: 00 00 00 00  returns 0x01 (0001ms, 8464ms total)
T0EC8 2466:848 JLINK_ReadMemU32(0xE0001038, 0x0001 Items, ...) -- CPU_ReadMem(4 bytes @ 0xE0001038) - Data: 00 02 00 00  returns 0x01 (0001ms, 8465ms total)
T0EC8 2466:849 JLINK_ReadMemU32(0xE0001048, 0x0001 Items, ...) -- CPU_ReadMem(4 bytes @ 0xE0001048) - Data: 00 00 00 00  returns 0x01 (0001ms, 8466ms total)
T0EC8 2466:850 JLINK_ReadMemU32(0xE0001058, 0x0001 Items, ...) -- CPU_ReadMem(4 bytes @ 0xE0001058) - Data: 00 00 00 00  returns 0x01 (0000ms, 8466ms total)
T1EF4 2467:548 JLINK_Close() -- CPU_WriteMem(4 bytes @ 0xE0002008) -- CPU_ReadMem(4 bytes @ 0xE0001000) >0xE0 JTAG> >0x40 JTAG> >0x30 JTAG> >0x30 JTAG> >0x30 JTAG> >0x30 JTAG> >0x48 JTAG> >0x30 JTAG> >0x08 JTAG> (0016ms, 8482ms total)
T1EF4 2467:548  (0016ms, 8482ms total)
T1EF4 2467:548 Closed (0016ms, 8482ms total)
